
T20C0 000:027 SEGGER J-Link V6.00e Log File (0001ms, 0021ms total)
T20C0 000:027 DLL Compiled: Aug  4 2016 09:37:38 (0001ms, 0021ms total)
T20C0 000:027 Logging started @ 2016-09-28 13:18 (0001ms, 0021ms total)
T20C0 000:028 JLINK_SetWarnOutHandler(...) (0000ms, 0021ms total)
T20C0 000:028 JLINK_OpenEx(...)
Firmware: J-Link OB-SAM3U128-V2-NordicSemi compiled Jul  5 2016 08:42:09
Hardware: V1.00
S/N: 682790565  returns O.K. (0015ms, 0036ms total)
T20C0 000:043 JLINK_SetErrorOutHandler(...) (0000ms, 0036ms total)
T20C0 000:043 JLINK_ExecCommand("ProjectFile = "Z:\nRF51_SDK_zip\Nordic\nRF5_SDK_11.0.0_89a8197\examples\ble_peripheral_received\nRF52-fds-example-master\pca10040\s132\arm5_no_packs\JLinkSettings.ini"", ...).   returns 0x00 (0089ms, 0125ms total)
T20C0 000:132 JLINK_ExecCommand("Device = nRF52832_xxAA", ...). Device "NRF52832_XXAA" selected.  returns 0x00 (0001ms, 0126ms total)
T20C0 000:133 JLINK_ExecCommand("DisableConnectionTimeout", ...).   returns 0x01 (0000ms, 0126ms total)
T20C0 000:133 JLINK_GetHardwareVersion()  returns 0x2710 (0000ms, 0126ms total)
T20C0 000:133 JLINK_GetDLLVersion()  returns 60005 (0000ms, 0126ms total)
T20C0 000:133 JLINK_GetFirmwareString(...) (0000ms, 0126ms total)
T20C0 000:133 JLINK_GetDLLVersion()  returns 60005 (0000ms, 0126ms total)
T20C0 000:133 JLINK_GetCompileDateTime() (0000ms, 0126ms total)
T20C0 000:133 JLINK_GetFirmwareString(...) (0000ms, 0126ms total)
T20C0 000:133 JLINK_GetHardwareVersion()  returns 0x2710 (0000ms, 0126ms total)
T20C0 000:133 JLINK_TIF_Select(JLINKARM_TIF_SWD)  returns 0x00 (0003ms, 0129ms total)
T20C0 000:136 JLINK_SetSpeed(5000) (0001ms, 0130ms total)
T20C0 000:137 JLINK_GetId() >0x108 TIF>Found SWD-DP with ID 0x2BA01477 >0x0D TIF> >0x28 TIF> >0x0D TIF> >0x28 TIF> >0x0D TIF> >0x28 TIF> >0x0D TIF> >0x28 TIF> >0x35 TIF> >0x0D TIF> >0x28 TIF> >0x0D TIF> >0x28 TIF> >0x35 TIF> >0x35 TIF> >0x35 TIF>AP-IDR: 0x24770011, Type: AHB-AP >0x0D TIF> >0x28 TIF> >0x0D TIF> >0x28 TIF> >0x0D TIF> >0x28 TIF> >0x35 TIF> >0x35 TIF> >0x0D TIF> >0x28 TIF> >0x35 TIF> >0x35 TIF>Found Cortex-M4 r0p1, Little endian. -- CPU_ReadMem(4 bytes @ 0xE000EDF0)
 -- CPU_ReadMem(4 bytes @ 0xE0002000)FPUnit: 6 code (BP) slots and 2 literal slots -- CPU_ReadMem(4 bytes @ 0xE000EDFC) -- CPU_ReadMem(4 bytes @ 0xE0001000) -- CPU_WriteMem(4 bytes @ 0xE0001000) -- CPU_ReadMem(4 bytes @ 0xE000ED88) -- CPU_WriteMem(4 bytes @ 0xE000ED88) -- CPU_ReadMem(4 bytes @ 0xE000ED88) -- CPU_WriteMem(4 bytes @ 0xE000ED88)CoreSight components:ROMTbl 0 @ E00FF000 -- CPU_ReadMem(16 bytes @ 0xE00FF000) -- CPU_ReadMem(16 bytes @ 0xE000EFF0) -- CPU_ReadMem(16 bytes @ 0xE000EFE0)
ROMTbl 0 [0]: FFF0F000, CID: B105E00D, PID: 000BB00C SCS -- CPU_ReadMem(16 bytes @ 0xE0001FF0) -- CPU_ReadMem(16 bytes @ 0xE0001FE0)ROMTbl 0 [1]: FFF02000, CID: B105E00D, PID: 003BB002 DWT -- CPU_ReadMem(16 bytes @ 0xE0002FF0) -- CPU_ReadMem(16 bytes @ 0xE0002FE0)ROMTbl 0 [2]: FFF03000, CID: B105E00D, PID: 002BB003 FPB -- CPU_ReadMem(16 bytes @ 0xE0000FF0) -- CPU_ReadMem(16 bytes @ 0xE0000FE0)ROMTbl 0 [3]: FFF01000, CID: B105E00D, PID: 003BB001 ITM -- CPU_ReadMem(16 bytes @ 0xE00FF010)
 -- CPU_ReadMem(16 bytes @ 0xE0040FF0) -- CPU_ReadMem(16 bytes @ 0xE0040FE0)ROMTbl 0 [4]: FFF41000, CID: B105900D, PID: 000BB9A1 TPIU -- CPU_ReadMem(16 bytes @ 0xE0041FF0) -- CPU_ReadMem(16 bytes @ 0xE0041FE0)ROMTbl 0 [5]: FFF42000, CID: B105900D, PID: 000BB925 ETM >0x35 TIF>  returns 0x2BA01477 (0057ms, 0187ms total)
T20C0 000:194 JLINK_GetDLLVersion()  returns 60005 (0000ms, 0187ms total)
T20C0 000:194 JLINK_CORE_GetFound()  returns 0xE0000FF (0000ms, 0187ms total)
T20C0 000:194 JLINK_GetDebugInfo(0x100) -- Value=0xE00FF000  returns 0x00 (0000ms, 0187ms total)
T20C0 000:194 JLINK_GetDebugInfo(0x100) -- Value=0xE00FF000  returns 0x00 (0000ms, 0187ms total)
T20C0 000:194 JLINK_GetDebugInfo(0x101) -- Value=0xE0041000  returns 0x00 (0000ms, 0187ms total)
T20C0 000:194 JLINK_GetDebugInfo(0x102) -- Value=0x00000000  returns 0x00 (0000ms, 0187ms total)
T20C0 000:194 JLINK_GetDebugInfo(0x103) -- Value=0xE0040000  returns 0x00 (0000ms, 0187ms total)
T20C0 000:194 JLINK_GetDebugInfo(0x104) -- Value=0xE0000000  returns 0x00 (0000ms, 0187ms total)
T20C0 000:194 JLINK_GetDebugInfo(0x105) -- Value=0xE0001000  returns 0x00 (0000ms, 0187ms total)
T20C0 000:194 JLINK_GetDebugInfo(0x106) -- Value=0xE0002000  returns 0x00 (0000ms, 0187ms total)
T20C0 000:194 JLINK_GetDebugInfo(0x107) -- Value=0xE000E000  returns 0x00 (0000ms, 0187ms total)
T20C0 000:194 JLINK_GetDebugInfo(0x10C) -- Value=0xE000EDF0  returns 0x00 (0000ms, 0187ms total)
T20C0 000:194 JLINK_ReadMemU32(0xE000EF40, 0x0001 Items, ...) -- CPU is running -- CPU_ReadMem(4 bytes @ 0xE000EF40) - Data: 21 00 11 10  returns 0x01 (0001ms, 0188ms total)
T20C0 000:195 JLINK_ReadMemU32(0xE000EF44, 0x0001 Items, ...) -- CPU is running -- CPU_ReadMem(4 bytes @ 0xE000EF44) - Data: 11 00 00 11  returns 0x01 (0001ms, 0189ms total)
T20C0 000:196 JLINK_ReadMemU32(0xE000ED00, 0x0001 Items, ...) -- CPU is running -- CPU_ReadMem(4 bytes @ 0xE000ED00) - Data: 41 C2 0F 41  returns 0x01 (0001ms, 0190ms total)
T20C0 000:197 JLINK_SetResetType(JLINKARM_RESET_TYPE_NORMAL)  returns JLINKARM_RESET_TYPE_NORMAL (0000ms, 0190ms total)
T20C0 000:197 JLINK_Reset() -- CPU is running -- CPU_WriteMem(4 bytes @ 0xE000EDF0) -- CPU is running -- CPU_WriteMem(4 bytes @ 0xE000EDFC) >0x35 TIF> -- CPU is running -- CPU_WriteMem(4 bytes @ 0xE000ED0C) -- CPU is running -- CPU_ReadMem(4 bytes @ 0xE000EDF0) -- CPU is running -- CPU_ReadMem(4 bytes @ 0xE000EDF0) -- CPU is running -- CPU_WriteMem(4 bytes @ 0xE000EDF0) -- CPU is running -- CPU_WriteMem(4 bytes @ 0xE000EDFC) -- CPU is running -- CPU_ReadMem(4 bytes @ 0xE000EDF0)
 -- CPU_WriteMem(4 bytes @ 0xE0002000) -- CPU_ReadMem(4 bytes @ 0xE000EDFC) -- CPU_ReadMem(4 bytes @ 0xE0001000) (0026ms, 0216ms total)
T20C0 000:223 JLINK_ReadReg(R15 (PC))  returns 0x000008E4 (0000ms, 0216ms total)
T20C0 000:223 JLINK_ReadReg(XPSR)  returns 0x01000000 (0000ms, 0216ms total)
T20C0 000:223 JLINK_Halt()  returns 0x00 (0000ms, 0216ms total)
T20C0 000:223 JLINK_IsHalted()  returns TRUE (0000ms, 0216ms total)
T20C0 000:223 JLINK_ReadMemU32(0xE000EDF0, 0x0001 Items, ...) -- CPU_ReadMem(4 bytes @ 0xE000EDF0) - Data: 03 00 03 00  returns 0x01 (0001ms, 0217ms total)
T20C0 000:224 JLINK_WriteU32(0xE000EDF0, 0xA05F0003) -- CPU_WriteMem(4 bytes @ 0xE000EDF0)  returns 0x00 (0001ms, 0218ms total)
T20C0 000:225 JLINK_WriteU32(0xE000EDFC, 0x01000000) -- CPU_WriteMem(4 bytes @ 0xE000EDFC)  returns 0x00 (0001ms, 0219ms total)
T20C0 000:226 JLINK_GetHWStatus(...)  returns 0x00 (0000ms, 0219ms total)
T20C0 000:226 JLINK_GetNumBPUnits(Type = 0xFFFFFF00)  returns 0x06 (0000ms, 0219ms total)
T20C0 000:226 JLINK_GetNumBPUnits(Type = 0xF0)  returns 0x2000 (0000ms, 0219ms total)
T20C0 000:226 JLINK_GetNumWPUnits()  returns 0x04 (0000ms, 0219ms total)
T20C0 000:226 JLINK_GetSpeed()  returns 0x3E8 (0000ms, 0219ms total)
T20C0 000:226 JLINK_ReadMemU32(0xE000E004, 0x0001 Items, ...) -- CPU_ReadMem(4 bytes @ 0xE000E004) - Data: 01 00 00 00  returns 0x01 (0002ms, 0221ms total)
T20C0 000:228 JLINK_ReadMemU32(0xE000E004, 0x0001 Items, ...) -- CPU_ReadMem(4 bytes @ 0xE000E004) - Data: 01 00 00 00  returns 0x01 (0001ms, 0222ms total)
T20C0 000:229 JLINK_WriteMem(0xE0001000, 0x001C Bytes, ...) - Data: 01 00 00 00 00 00 00 00 00 00 00 00 00 00 00 00 ... -- CPU_WriteMem(28 bytes @ 0xE0001000)  returns 0x1C (0001ms, 0223ms total)
T20C0 000:230 JLINK_ReadMem (0xE0001000, 0x001C Bytes, ...) -- CPU_ReadMem(28 bytes @ 0xE0001000) - Data: 01 00 00 40 00 00 00 00 00 00 00 00 00 00 00 00 ...  returns 0x00 (0001ms, 0224ms total)
T20C0 000:231 JLINK_ReadReg(R15 (PC))  returns 0x000008E4 (0000ms, 0224ms total)
T20C0 000:231 JLINK_ReadReg(XPSR)  returns 0x01000000 (0000ms, 0224ms total)
T20C0 000:331 JLINK_SetResetType(JLINKARM_RESET_TYPE_NORMAL)  returns JLINKARM_RESET_TYPE_NORMAL (0000ms, 0224ms total)
T20C0 000:331 JLINK_Reset() -- CPU_WriteMem(4 bytes @ 0xE000EDF0) -- CPU_WriteMem(4 bytes @ 0xE000EDFC) >0x35 TIF> -- CPU_WriteMem(4 bytes @ 0xE000ED0C) -- CPU_ReadMem(4 bytes @ 0xE000EDF0) -- CPU_ReadMem(4 bytes @ 0xE000EDF0) -- CPU_WriteMem(4 bytes @ 0xE000EDF0) -- CPU_WriteMem(4 bytes @ 0xE000EDFC) -- CPU is running -- CPU_ReadMem(4 bytes @ 0xE000EDF0) -- CPU_WriteMem(4 bytes @ 0xE0002000) -- CPU_ReadMem(4 bytes @ 0xE000EDFC) -- CPU_ReadMem(4 bytes @ 0xE0001000) (0025ms, 0249ms total)
T20C0 000:356 JLINK_ReadReg(R15 (PC))  returns 0x000008E4 (0000ms, 0249ms total)
T20C0 000:356 JLINK_ReadReg(XPSR)  returns 0x01000000 (0000ms, 0249ms total)
T20C0 000:356 JLINK_ReadMemU32(0xE0001004, 0x0001 Items, ...) -- CPU_ReadMem(4 bytes @ 0xE0001004) - Data: 08 00 00 00  returns 0x01 (0001ms, 0250ms total)
T20C0 000:357 JLINK_ReadMem (0x000008E4, 0x003C Bytes, ...) -- CPU_ReadMem(128 bytes @ 0x000008C0) -- Updating C cache (128 bytes @ 0x000008C0) -- Read from C cache (60 bytes @ 0x000008E4) - Data: 06 4B 18 47 06 4A 10 60 01 68 81 F3 08 88 40 68 ...  returns 0x00 (0002ms, 0252ms total)
T20C0 000:978 JLINK_ReadMem (0x00023810, 0x003C Bytes, ...) -- CPU_ReadMem(128 bytes @ 0x00023800) -- Updating C cache (128 bytes @ 0x00023800) -- Read from C cache (60 bytes @ 0x00023810) - Data: FA F7 8A FA 00 BF 03 F0 ED FA FC E7 2E 2E 5C 2E ...  returns 0x00 (0002ms, 0254ms total)
T46A0 001:276 JLINK_SetBPEx(Addr = 0x0002374C, Type = 0xFFFFFFF2)  returns 0x00000001 (0000ms, 0254ms total)
T46A0 001:276 JLINK_SetBPEx(Addr = 0x00023810, Type = 0xFFFFFFF2)  returns 0x00000002 (0000ms, 0254ms total)
T46A0 001:276 JLINK_Go() -- CPU_WriteMem(4 bytes @ 0xE0002000) -- CPU_WriteMem(4 bytes @ 0xE0002000) -- CPU_ReadMem(4 bytes @ 0xE0001000) -- CPU_WriteMem(4 bytes @ 0xE0002008) -- CPU_WriteMem(4 bytes @ 0xE000200C) -- CPU_WriteMem(4 bytes @ 0xE0002010) -- CPU_WriteMem(4 bytes @ 0xE0002014) -- CPU_WriteMem(4 bytes @ 0xE0002018) -- CPU_WriteMem(4 bytes @ 0xE000201C) -- CPU_WriteMem(4 bytes @ 0xE0001004) (0008ms, 0262ms total)
T46A0 001:384 JLINK_IsHalted()  returns TRUE (0006ms, 0268ms total)
T46A0 001:390 JLINK_Halt()  returns 0x00 (0000ms, 0262ms total)
T46A0 001:390 JLINK_IsHalted()  returns TRUE (0000ms, 0262ms total)
T46A0 001:390 JLINK_IsHalted()  returns TRUE (0000ms, 0262ms total)
T46A0 001:390 JLINK_IsHalted()  returns TRUE (0000ms, 0262ms total)
T46A0 001:390 JLINK_ReadReg(R15 (PC))  returns 0x0002374C (0000ms, 0262ms total)
T46A0 001:390 JLINK_ReadReg(XPSR)  returns 0x61000000 (0000ms, 0262ms total)
T46A0 001:390 JLINK_ClrBPEx(BPHandle = 0x00000001)  returns 0x00 (0000ms, 0262ms total)
T46A0 001:390 JLINK_ClrBPEx(BPHandle = 0x00000002)  returns 0x00 (0000ms, 0262ms total)
T46A0 001:390 JLINK_ReadMemU32(0xE000ED30, 0x0001 Items, ...) -- CPU_ReadMem(4 bytes @ 0xE000ED30) - Data: 02 00 00 00  returns 0x01 (0001ms, 0263ms total)
T46A0 001:391 JLINK_ReadMemU32(0xE0001028, 0x0001 Items, ...) -- CPU_ReadMem(4 bytes @ 0xE0001028) - Data: 00 00 00 00  returns 0x01 (0001ms, 0264ms total)
T46A0 001:392 JLINK_ReadMemU32(0xE0001038, 0x0001 Items, ...) -- CPU_ReadMem(4 bytes @ 0xE0001038) - Data: 00 02 00 00  returns 0x01 (0001ms, 0265ms total)
T46A0 001:393 JLINK_ReadMemU32(0xE0001048, 0x0001 Items, ...) -- CPU_ReadMem(4 bytes @ 0xE0001048) - Data: 00 00 00 00  returns 0x01 (0001ms, 0266ms total)
T46A0 001:394 JLINK_ReadMemU32(0xE0001058, 0x0001 Items, ...) -- CPU_ReadMem(4 bytes @ 0xE0001058) - Data: 00 00 00 00  returns 0x01 (0001ms, 0267ms total)
T46A0 001:395 JLINK_ReadReg(R0)  returns 0x0002374D (0000ms, 0267ms total)
T46A0 001:395 JLINK_ReadReg(R1)  returns 0x20005570 (0000ms, 0267ms total)
T46A0 001:395 JLINK_ReadReg(R2)  returns 0x00000000 (0000ms, 0267ms total)
T46A0 001:395 JLINK_ReadReg(R3)  returns 0x0001D099 (0000ms, 0267ms total)
T46A0 001:395 JLINK_ReadReg(R4)  returns 0x00029A5C (0000ms, 0267ms total)
T46A0 001:395 JLINK_ReadReg(R5)  returns 0x00029A5C (0000ms, 0267ms total)
T46A0 001:395 JLINK_ReadReg(R6)  returns 0x00000000 (0000ms, 0267ms total)
T46A0 001:395 JLINK_ReadReg(R7)  returns 0x00000000 (0000ms, 0267ms total)
T46A0 001:395 JLINK_ReadReg(R8)  returns 0x00000000 (0000ms, 0267ms total)
T46A0 001:395 JLINK_ReadReg(R9)  returns 0x00000000 (0000ms, 0267ms total)
T46A0 001:395 JLINK_ReadReg(R10)  returns 0x00000000 (0000ms, 0267ms total)
T46A0 001:395 JLINK_ReadReg(R11)  returns 0x00000000 (0000ms, 0267ms total)
T46A0 001:395 JLINK_ReadReg(R12)  returns 0x00000000 (0000ms, 0267ms total)
T46A0 001:395 JLINK_ReadReg(R13 (SP))  returns 0x20005570 (0000ms, 0267ms total)
T46A0 001:395 JLINK_ReadReg(R14)  returns 0x0001C92D (0000ms, 0267ms total)
T46A0 001:395 JLINK_ReadReg(R15 (PC))  returns 0x0002374C (0000ms, 0267ms total)
T46A0 001:395 JLINK_ReadReg(XPSR)  returns 0x61000000 (0000ms, 0267ms total)
T46A0 001:395 JLINK_ReadReg(MSP)  returns 0x20005570 (0000ms, 0267ms total)
T46A0 001:395 JLINK_ReadReg(PSP)  returns 0x00000000 (0000ms, 0267ms total)
T46A0 001:395 JLINK_ReadReg(CFBP)  returns 0x00000000 (0000ms, 0267ms total)
T46A0 001:395 JLINK_ReadReg(FPSCR)  returns 0x00000000 (0011ms, 0278ms total)
T46A0 001:406 JLINK_ReadReg(FPS0)  returns 0x00000000 (0000ms, 0278ms total)
T46A0 001:406 JLINK_ReadReg(FPS1)  returns 0x00000000 (0000ms, 0278ms total)
T46A0 001:406 JLINK_ReadReg(FPS2)  returns 0x00000000 (0000ms, 0278ms total)
T46A0 001:406 JLINK_ReadReg(FPS3)  returns 0x00000000 (0000ms, 0278ms total)
T46A0 001:406 JLINK_ReadReg(FPS4)  returns 0x00000000 (0000ms, 0278ms total)
T46A0 001:406 JLINK_ReadReg(FPS5)  returns 0x00000000 (0000ms, 0278ms total)
T46A0 001:406 JLINK_ReadReg(FPS6)  returns 0x00000000 (0000ms, 0278ms total)
T46A0 001:406 JLINK_ReadReg(FPS7)  returns 0x00000000 (0000ms, 0278ms total)
T46A0 001:406 JLINK_ReadReg(FPS8)  returns 0x00000000 (0000ms, 0278ms total)
T46A0 001:406 JLINK_ReadReg(FPS9)  returns 0x00000000 (0000ms, 0278ms total)
T46A0 001:406 JLINK_ReadReg(FPS10)  returns 0x00000000 (0000ms, 0278ms total)
T46A0 001:406 JLINK_ReadReg(FPS11)  returns 0x00000000 (0000ms, 0278ms total)
T46A0 001:406 JLINK_ReadReg(FPS12)  returns 0x00000000 (0000ms, 0278ms total)
T46A0 001:406 JLINK_ReadReg(FPS13)  returns 0x00000000 (0000ms, 0278ms total)
T46A0 001:406 JLINK_ReadReg(FPS14)  returns 0x00000000 (0000ms, 0278ms total)
T46A0 001:406 JLINK_ReadReg(FPS15)  returns 0x00000000 (0000ms, 0278ms total)
T46A0 001:406 JLINK_ReadReg(FPS16)  returns 0x00000000 (0000ms, 0278ms total)
T46A0 001:406 JLINK_ReadReg(FPS17)  returns 0x00000000 (0000ms, 0278ms total)
T46A0 001:406 JLINK_ReadReg(FPS18)  returns 0x00000000 (0000ms, 0278ms total)
T46A0 001:406 JLINK_ReadReg(FPS19)  returns 0x00000000 (0000ms, 0278ms total)
T46A0 001:406 JLINK_ReadReg(FPS20)  returns 0x00000000 (0000ms, 0278ms total)
T46A0 001:406 JLINK_ReadReg(FPS21)  returns 0x00000000 (0000ms, 0278ms total)
T46A0 001:406 JLINK_ReadReg(FPS22)  returns 0x00000000 (0000ms, 0278ms total)
T46A0 001:406 JLINK_ReadReg(FPS23)  returns 0x00000000 (0000ms, 0278ms total)
T46A0 001:406 JLINK_ReadReg(FPS24)  returns 0x00000000 (0000ms, 0278ms total)
T46A0 001:406 JLINK_ReadReg(FPS25)  returns 0x00000000 (0000ms, 0278ms total)
T46A0 001:406 JLINK_ReadReg(FPS26)  returns 0x00000000 (0000ms, 0278ms total)
T46A0 001:406 JLINK_ReadReg(FPS27)  returns 0x00000000 (0000ms, 0278ms total)
T46A0 001:406 JLINK_ReadReg(FPS28)  returns 0x00000000 (0000ms, 0278ms total)
T46A0 001:406 JLINK_ReadReg(FPS29)  returns 0x00000000 (0000ms, 0278ms total)
T46A0 001:406 JLINK_ReadReg(FPS30)  returns 0x00000000 (0000ms, 0278ms total)
T46A0 001:406 JLINK_ReadReg(FPS31)  returns 0x00000000 (0000ms, 0278ms total)
T20C0 001:406 JLINK_ReadMem (0x20005568, 0x0001 Bytes, ...) -- CPU_ReadMem(64 bytes @ 0x20005540) -- Updating C cache (64 bytes @ 0x20005540) -- Read from C cache (1 bytes @ 0x20005568) - Data: 00  returns 0x00 (0001ms, 0279ms total)
T20C0 001:407 JLINK_ReadMem (0x00000000, 0x0004 Bytes, ...) -- CPU_ReadMem(64 bytes @ 0x00000000) -- Updating C cache (64 bytes @ 0x00000000) -- Read from C cache (4 bytes @ 0x00000000) - Data: 00 04 00 20  returns 0x00 (0002ms, 0281ms total)
T20C0 001:411 JLINK_ReadMemU32(0xE0001004, 0x0001 Items, ...) -- CPU_ReadMem(4 bytes @ 0xE0001004) - Data: BC 5C 00 00  returns 0x01 (0001ms, 0282ms total)
T46A0 001:994 JLINK_SetBPEx(Addr = 0x00023810, Type = 0xFFFFFFF2)  returns 0x00000003 (0000ms, 0282ms total)
T46A0 001:994 JLINK_Go() -- CPU_WriteMem(4 bytes @ 0xE0002000) -- CPU_ReadMem(4 bytes @ 0xE0001000) -- CPU_WriteMem(4 bytes @ 0xE0002008) -- CPU_WriteMem(4 bytes @ 0xE000200C) (0005ms, 0287ms total)
T46A0 002:099 JLINK_IsHalted()  returns FALSE (0000ms, 0287ms total)
T46A0 002:199 JLINK_IsHalted()  returns FALSE (0000ms, 0287ms total)
T46A0 002:299 JLINK_IsHalted()  returns FALSE (0000ms, 0287ms total)
T46A0 002:399 JLINK_IsHalted()  returns TRUE (0006ms, 0293ms total)
T46A0 002:405 JLINK_Halt()  returns 0x00 (0000ms, 0287ms total)
T46A0 002:405 JLINK_IsHalted()  returns TRUE (0000ms, 0287ms total)
T46A0 002:405 JLINK_IsHalted()  returns TRUE (0000ms, 0287ms total)
T46A0 002:405 JLINK_IsHalted()  returns TRUE (0000ms, 0287ms total)
T46A0 002:405 JLINK_ReadReg(R15 (PC))  returns 0x00023810 (0000ms, 0287ms total)
T46A0 002:405 JLINK_ReadReg(XPSR)  returns 0x61000000 (0000ms, 0287ms total)
T46A0 002:405 JLINK_ClrBPEx(BPHandle = 0x00000003)  returns 0x00 (0000ms, 0287ms total)
T46A0 002:405 JLINK_ReadMemU32(0xE000ED30, 0x0001 Items, ...) -- CPU_ReadMem(4 bytes @ 0xE000ED30) - Data: 02 00 00 00  returns 0x01 (0001ms, 0288ms total)
T46A0 002:406 JLINK_ReadMemU32(0xE0001028, 0x0001 Items, ...) -- CPU_ReadMem(4 bytes @ 0xE0001028) - Data: 00 00 00 00  returns 0x01 (0001ms, 0289ms total)
T46A0 002:407 JLINK_ReadMemU32(0xE0001038, 0x0001 Items, ...) -- CPU_ReadMem(4 bytes @ 0xE0001038) - Data: 00 02 00 00  returns 0x01 (0001ms, 0290ms total)
T46A0 002:408 JLINK_ReadMemU32(0xE0001048, 0x0001 Items, ...) -- CPU_ReadMem(4 bytes @ 0xE0001048) - Data: 00 00 00 00  returns 0x01 (0001ms, 0291ms total)
T46A0 002:409 JLINK_ReadMemU32(0xE0001058, 0x0001 Items, ...) -- CPU_ReadMem(4 bytes @ 0xE0001058) - Data: 00 00 00 00  returns 0x01 (0001ms, 0292ms total)
T46A0 002:410 JLINK_ReadReg(R0)  returns 0x00000000 (0000ms, 0292ms total)
T46A0 002:410 JLINK_ReadReg(R1)  returns 0x2000553C (0000ms, 0292ms total)
T46A0 002:410 JLINK_ReadReg(R2)  returns 0x20005544 (0000ms, 0292ms total)
T46A0 002:410 JLINK_ReadReg(R3)  returns 0x2000553C (0000ms, 0292ms total)
T46A0 002:410 JLINK_ReadReg(R4)  returns 0x00000000 (0000ms, 0292ms total)
T46A0 002:410 JLINK_ReadReg(R5)  returns 0x00000000 (0000ms, 0292ms total)
T46A0 002:410 JLINK_ReadReg(R6)  returns 0x00000000 (0000ms, 0292ms total)
T46A0 002:410 JLINK_ReadReg(R7)  returns 0x00000000 (0000ms, 0292ms total)
T46A0 002:410 JLINK_ReadReg(R8)  returns 0x00000000 (0000ms, 0292ms total)
T46A0 002:410 JLINK_ReadReg(R9)  returns 0x00000000 (0000ms, 0292ms total)
T46A0 002:410 JLINK_ReadReg(R10)  returns 0x00000000 (0000ms, 0292ms total)
T46A0 002:410 JLINK_ReadReg(R11)  returns 0x00000000 (0000ms, 0292ms total)
T46A0 002:410 JLINK_ReadReg(R12)  returns 0x00000000 (0000ms, 0292ms total)
T46A0 002:410 JLINK_ReadReg(R13 (SP))  returns 0x20005568 (0000ms, 0292ms total)
T46A0 002:410 JLINK_ReadReg(R14)  returns 0x00027161 (0000ms, 0292ms total)
T46A0 002:410 JLINK_ReadReg(R15 (PC))  returns 0x00023810 (0000ms, 0292ms total)
T46A0 002:410 JLINK_ReadReg(XPSR)  returns 0x61000000 (0000ms, 0292ms total)
T46A0 002:410 JLINK_ReadReg(MSP)  returns 0x20005568 (0000ms, 0292ms total)
T46A0 002:410 JLINK_ReadReg(PSP)  returns 0x00000000 (0000ms, 0292ms total)
T46A0 002:410 JLINK_ReadReg(CFBP)  returns 0x00000000 (0000ms, 0292ms total)
T46A0 002:410 JLINK_ReadReg(FPSCR)  returns 0x00000000 (0010ms, 0302ms total)
T46A0 002:420 JLINK_ReadReg(FPS0)  returns 0x00000000 (0001ms, 0303ms total)
T46A0 002:421 JLINK_ReadReg(FPS1)  returns 0x00000000 (0000ms, 0303ms total)
T46A0 002:421 JLINK_ReadReg(FPS2)  returns 0x00000000 (0000ms, 0303ms total)
T46A0 002:421 JLINK_ReadReg(FPS3)  returns 0x00000000 (0000ms, 0303ms total)
T46A0 002:421 JLINK_ReadReg(FPS4)  returns 0x00000000 (0000ms, 0303ms total)
T46A0 002:421 JLINK_ReadReg(FPS5)  returns 0x00000000 (0000ms, 0303ms total)
T46A0 002:421 JLINK_ReadReg(FPS6)  returns 0x00000000 (0000ms, 0303ms total)
T46A0 002:421 JLINK_ReadReg(FPS7)  returns 0x00000000 (0000ms, 0303ms total)
T46A0 002:421 JLINK_ReadReg(FPS8)  returns 0x00000000 (0000ms, 0303ms total)
T46A0 002:421 JLINK_ReadReg(FPS9)  returns 0x00000000 (0000ms, 0303ms total)
T46A0 002:421 JLINK_ReadReg(FPS10)  returns 0x00000000 (0000ms, 0303ms total)
T46A0 002:421 JLINK_ReadReg(FPS11)  returns 0x00000000 (0000ms, 0303ms total)
T46A0 002:421 JLINK_ReadReg(FPS12)  returns 0x00000000 (0000ms, 0303ms total)
T46A0 002:421 JLINK_ReadReg(FPS13)  returns 0x00000000 (0000ms, 0303ms total)
T46A0 002:421 JLINK_ReadReg(FPS14)  returns 0x00000000 (0000ms, 0303ms total)
T46A0 002:421 JLINK_ReadReg(FPS15)  returns 0x00000000 (0000ms, 0303ms total)
T46A0 002:421 JLINK_ReadReg(FPS16)  returns 0x00000000 (0000ms, 0303ms total)
T46A0 002:421 JLINK_ReadReg(FPS17)  returns 0x00000000 (0000ms, 0303ms total)
T46A0 002:421 JLINK_ReadReg(FPS18)  returns 0x00000000 (0000ms, 0303ms total)
T46A0 002:421 JLINK_ReadReg(FPS19)  returns 0x00000000 (0000ms, 0303ms total)
T46A0 002:421 JLINK_ReadReg(FPS20)  returns 0x00000000 (0000ms, 0303ms total)
T46A0 002:421 JLINK_ReadReg(FPS21)  returns 0x00000000 (0000ms, 0303ms total)
T46A0 002:421 JLINK_ReadReg(FPS22)  returns 0x00000000 (0000ms, 0303ms total)
T46A0 002:421 JLINK_ReadReg(FPS23)  returns 0x00000000 (0000ms, 0303ms total)
T46A0 002:421 JLINK_ReadReg(FPS24)  returns 0x00000000 (0000ms, 0303ms total)
T46A0 002:421 JLINK_ReadReg(FPS25)  returns 0x00000000 (0000ms, 0303ms total)
T46A0 002:421 JLINK_ReadReg(FPS26)  returns 0x00000000 (0000ms, 0303ms total)
T46A0 002:421 JLINK_ReadReg(FPS27)  returns 0x00000000 (0000ms, 0303ms total)
T46A0 002:421 JLINK_ReadReg(FPS28)  returns 0x00000000 (0000ms, 0303ms total)
T46A0 002:421 JLINK_ReadReg(FPS29)  returns 0x00000000 (0000ms, 0303ms total)
T46A0 002:421 JLINK_ReadReg(FPS30)  returns 0x00000000 (0000ms, 0303ms total)
T46A0 002:421 JLINK_ReadReg(FPS31)  returns 0x00000000 (0000ms, 0303ms total)
T20C0 002:421 JLINK_ReadMem (0x2000556C, 0x0004 Bytes, ...) -- CPU_ReadMem(64 bytes @ 0x20005540) -- Updating C cache (64 bytes @ 0x20005540) -- Read from C cache (4 bytes @ 0x2000556C) - Data: 2D C9 01 00  returns 0x00 (0002ms, 0305ms total)
T20C0 002:423 JLINK_ReadMem (0x20005568, 0x0001 Bytes, ...) -- Read from C cache (1 bytes @ 0x20005568) - Data: 00  returns 0x00 (0000ms, 0305ms total)
T20C0 002:423 JLINK_ReadMem (0x00000000, 0x0004 Bytes, ...) -- CPU_ReadMem(64 bytes @ 0x00000000) -- Updating C cache (64 bytes @ 0x00000000) -- Read from C cache (4 bytes @ 0x00000000) - Data: 00 04 00 20  returns 0x00 (0001ms, 0306ms total)
T20C0 002:424 JLINK_ReadMemU32(0xE0001004, 0x0001 Items, ...) -- CPU_ReadMem(4 bytes @ 0xE0001004) - Data: A2 4B 7E 01  returns 0x01 (0000ms, 0306ms total)
T20C0 002:425 JLINK_ReadMem (0x00023810, 0x003C Bytes, ...) -- CPU_ReadMem(128 bytes @ 0x00023800) -- Updating C cache (128 bytes @ 0x00023800) -- Read from C cache (60 bytes @ 0x00023810) - Data: FA F7 8A FA 00 BF 03 F0 ED FA FC E7 2E 2E 5C 2E ...  returns 0x00 (0002ms, 0308ms total)
T46A0 013:612 JLINK_Step() -- Read from C cache (2 bytes @ 0x00023810) -- CPU_ReadMem(4 bytes @ 0xE000ED18) -- CPU_WriteMem(4 bytes @ 0xE000ED18) -- CPU_ReadMem(4 bytes @ 0xE000ED18) -- CPU_WriteMem(4 bytes @ 0xE000ED18) -- Read from C cache (2 bytes @ 0x00023812) -- Simulated  returns 0x00 (0004ms, 0312ms total)
T46A0 013:616 JLINK_ReadReg(R15 (PC))  returns 0x0001DD28 (0000ms, 0312ms total)
T46A0 013:616 JLINK_ReadReg(XPSR)  returns 0x61000000 (0000ms, 0312ms total)
T46A0 013:616 JLINK_SetBPEx(Addr = 0x00023810, Type = 0xFFFFFFF2)  returns 0x00000004 (0000ms, 0312ms total)
T46A0 013:616 JLINK_Go() -- CPU_WriteMem(4 bytes @ 0xE0002000) -- CPU_ReadMem(4 bytes @ 0xE0001000) -- CPU_WriteMem(4 bytes @ 0xE0001004) (0006ms, 0318ms total)
T46A0 013:722 JLINK_IsHalted()  returns FALSE (0000ms, 0318ms total)
T46A0 013:822 JLINK_IsHalted()  returns FALSE (0000ms, 0318ms total)
T46A0 013:922 JLINK_IsHalted()  returns FALSE (0000ms, 0318ms total)
T46A0 014:022 JLINK_IsHalted()  returns FALSE (0000ms, 0318ms total)
T46A0 014:122 JLINK_IsHalted()  returns FALSE (0000ms, 0318ms total)
T46A0 014:222 JLINK_IsHalted()  returns FALSE (0000ms, 0318ms total)
T46A0 014:322 JLINK_IsHalted()  returns FALSE (0000ms, 0318ms total)
T46A0 014:422 JLINK_IsHalted()  returns FALSE (0000ms, 0318ms total)
T46A0 014:522 JLINK_IsHalted()  returns FALSE (0000ms, 0318ms total)
T46A0 014:622 JLINK_IsHalted()  returns FALSE (0000ms, 0318ms total)
T46A0 014:722 JLINK_IsHalted()  returns FALSE (0000ms, 0318ms total)
T46A0 014:822 JLINK_IsHalted()  returns FALSE (0000ms, 0318ms total)
T46A0 014:922 JLINK_IsHalted()  returns FALSE (0000ms, 0318ms total)
T46A0 015:022 JLINK_IsHalted()  returns FALSE (0000ms, 0318ms total)
T46A0 015:122 JLINK_IsHalted()  returns FALSE (0000ms, 0318ms total)
T46A0 015:222 JLINK_IsHalted()  returns FALSE (0000ms, 0318ms total)
T46A0 015:322 JLINK_IsHalted()  returns FALSE (0000ms, 0318ms total)
T46A0 015:422 JLINK_IsHalted()  returns FALSE (0000ms, 0318ms total)
T46A0 015:522 JLINK_IsHalted()  returns FALSE (0000ms, 0318ms total)
T46A0 015:622 JLINK_IsHalted()  returns FALSE (0000ms, 0318ms total)
T46A0 015:722 JLINK_IsHalted()  returns FALSE (0000ms, 0318ms total)
T46A0 015:822 JLINK_IsHalted()  returns FALSE (0000ms, 0318ms total)
T46A0 015:922 JLINK_IsHalted()  returns FALSE (0000ms, 0318ms total)
T46A0 016:022 JLINK_IsHalted()  returns FALSE (0000ms, 0318ms total)
T46A0 016:122 JLINK_IsHalted()  returns FALSE (0000ms, 0318ms total)
T46A0 016:222 JLINK_IsHalted()  returns FALSE (0000ms, 0318ms total)
T46A0 016:322 JLINK_IsHalted()  returns FALSE (0000ms, 0318ms total)
T46A0 016:422 JLINK_IsHalted()  returns FALSE (0000ms, 0318ms total)
T46A0 016:522 JLINK_IsHalted()  returns FALSE (0000ms, 0318ms total)
T46A0 016:622 JLINK_IsHalted()  returns FALSE (0000ms, 0318ms total)
T46A0 016:722 JLINK_IsHalted()  returns FALSE (0000ms, 0318ms total)
T46A0 016:822 JLINK_IsHalted()  returns FALSE (0000ms, 0318ms total)
T46A0 016:922 JLINK_IsHalted()  returns FALSE (0000ms, 0318ms total)
T46A0 017:022 JLINK_IsHalted()  returns FALSE (0000ms, 0318ms total)
T46A0 017:122 JLINK_IsHalted()  returns FALSE (0000ms, 0318ms total)
T46A0 017:222 JLINK_IsHalted()  returns FALSE (0000ms, 0318ms total)
T46A0 017:322 JLINK_IsHalted()  returns FALSE (0000ms, 0318ms total)
T46A0 017:422 JLINK_IsHalted()  returns FALSE (0000ms, 0318ms total)
T46A0 017:522 JLINK_IsHalted()  returns FALSE (0000ms, 0318ms total)
T46A0 017:622 JLINK_IsHalted()  returns FALSE (0000ms, 0318ms total)
T46A0 017:722 JLINK_IsHalted()  returns FALSE (0000ms, 0318ms total)
T46A0 017:822 JLINK_IsHalted()  returns FALSE (0000ms, 0318ms total)
T20C0 017:857 JLINK_ClrBPEx(BPHandle = 0x00000004) -- CPU is running -- CPU is running -- CPU_WriteMem(4 bytes @ 0xE0002008) -- CPU is running -- CPU_WriteMem(4 bytes @ 0xE000200C) -- CPU is running -- CPU_WriteMem(4 bytes @ 0xE0002010) -- CPU is running -- CPU_WriteMem(4 bytes @ 0xE0002014) -- CPU is running -- CPU_WriteMem(4 bytes @ 0xE0002018) -- CPU is running -- CPU_WriteMem(4 bytes @ 0xE000201C)  returns 0x00 (0007ms, 0325ms total)
T46A0 017:922 JLINK_IsHalted()  returns FALSE (0000ms, 0325ms total)
T46A0 018:022 JLINK_IsHalted()  returns FALSE (0000ms, 0325ms total)
T46A0 018:122 JLINK_IsHalted()  returns FALSE (0000ms, 0325ms total)
T46A0 018:222 JLINK_IsHalted()  returns FALSE (0000ms, 0325ms total)
T46A0 018:322 JLINK_IsHalted()  returns FALSE (0000ms, 0325ms total)
T46A0 018:422 JLINK_IsHalted()  returns FALSE (0000ms, 0325ms total)
T46A0 018:522 JLINK_IsHalted()  returns FALSE (0000ms, 0325ms total)
T46A0 018:622 JLINK_IsHalted()  returns FALSE (0000ms, 0325ms total)
T46A0 018:722 JLINK_IsHalted()  returns FALSE (0000ms, 0325ms total)
T46A0 018:822 JLINK_IsHalted()  returns FALSE (0000ms, 0325ms total)
T46A0 018:922 JLINK_IsHalted()  returns FALSE (0000ms, 0325ms total)
T46A0 019:022 JLINK_IsHalted()  returns FALSE (0000ms, 0325ms total)
T46A0 019:122 JLINK_IsHalted()  returns FALSE (0000ms, 0325ms total)
T46A0 019:222 JLINK_IsHalted()  returns FALSE (0000ms, 0325ms total)
T46A0 019:322 JLINK_IsHalted()  returns FALSE (0000ms, 0325ms total)
T46A0 019:422 JLINK_IsHalted()  returns FALSE (0000ms, 0325ms total)
T46A0 019:522 JLINK_IsHalted()  returns FALSE (0000ms, 0325ms total)
T46A0 019:622 JLINK_IsHalted()  returns FALSE (0000ms, 0325ms total)
T46A0 019:722 JLINK_IsHalted()  returns FALSE (0000ms, 0325ms total)
T46A0 019:822 JLINK_Halt()  returns 0x00 (0006ms, 0331ms total)
T46A0 019:828 JLINK_IsHalted()  returns TRUE (0000ms, 0331ms total)
T46A0 019:828 JLINK_IsHalted()  returns TRUE (0000ms, 0331ms total)
T46A0 019:828 JLINK_IsHalted()  returns TRUE (0000ms, 0331ms total)
T46A0 019:828 JLINK_ReadReg(R15 (PC))  returns 0x000114D6 (0000ms, 0331ms total)
T46A0 019:828 JLINK_ReadReg(XPSR)  returns 0x21000000 (0000ms, 0331ms total)
T46A0 019:828 JLINK_ReadMemU32(0xE000ED30, 0x0001 Items, ...) -- CPU_ReadMem(4 bytes @ 0xE000ED30) - Data: 01 00 00 00  returns 0x01 (0001ms, 0332ms total)
T46A0 019:829 JLINK_ReadMemU32(0xE0001028, 0x0001 Items, ...) -- CPU_ReadMem(4 bytes @ 0xE0001028) - Data: 00 00 00 00  returns 0x01 (0001ms, 0333ms total)
T46A0 019:830 JLINK_ReadMemU32(0xE0001038, 0x0001 Items, ...) -- CPU_ReadMem(4 bytes @ 0xE0001038) - Data: 00 02 00 00  returns 0x01 (0001ms, 0334ms total)
T46A0 019:831 JLINK_ReadMemU32(0xE0001048, 0x0001 Items, ...) -- CPU_ReadMem(4 bytes @ 0xE0001048) - Data: 00 00 00 00  returns 0x01 (0001ms, 0335ms total)
T46A0 019:832 JLINK_ReadMemU32(0xE0001058, 0x0001 Items, ...) -- CPU_ReadMem(4 bytes @ 0xE0001058) - Data: 00 00 00 00  returns 0x01 (0001ms, 0336ms total)
T46A0 019:833 JLINK_ReadReg(R0)  returns 0x01000001 (0000ms, 0336ms total)
T46A0 019:833 JLINK_ReadReg(R1)  returns 0x40020518 (0000ms, 0336ms total)
T46A0 019:833 JLINK_ReadReg(R2)  returns 0xE000E200 (0000ms, 0336ms total)
T46A0 019:833 JLINK_ReadReg(R3)  returns 0x00000000 (0000ms, 0336ms total)
T46A0 019:833 JLINK_ReadReg(R4)  returns 0x20000093 (0000ms, 0336ms total)
T46A0 019:833 JLINK_ReadReg(R5)  returns 0xE000E000 (0000ms, 0336ms total)
T46A0 019:833 JLINK_ReadReg(R6)  returns 0x00000000 (0000ms, 0336ms total)
T46A0 019:833 JLINK_ReadReg(R7)  returns 0x00000000 (0000ms, 0336ms total)
T46A0 019:833 JLINK_ReadReg(R8)  returns 0x00000000 (0000ms, 0336ms total)
T46A0 019:833 JLINK_ReadReg(R9)  returns 0x00000000 (0000ms, 0336ms total)
T46A0 019:833 JLINK_ReadReg(R10)  returns 0x00000000 (0000ms, 0336ms total)
T46A0 019:833 JLINK_ReadReg(R11)  returns 0x00000000 (0000ms, 0336ms total)
T46A0 019:833 JLINK_ReadReg(R12)  returns 0x00000000 (0000ms, 0336ms total)
T46A0 019:833 JLINK_ReadReg(R13 (SP))  returns 0x20005530 (0000ms, 0336ms total)
T46A0 019:833 JLINK_ReadReg(R14)  returns 0x000114D5 (0000ms, 0336ms total)
T46A0 019:833 JLINK_ReadReg(R15 (PC))  returns 0x000114D6 (0000ms, 0336ms total)
T46A0 019:833 JLINK_ReadReg(XPSR)  returns 0x21000000 (0000ms, 0336ms total)
T46A0 019:833 JLINK_ReadReg(MSP)  returns 0x20005530 (0000ms, 0336ms total)
T46A0 019:833 JLINK_ReadReg(PSP)  returns 0x00000000 (0000ms, 0336ms total)
T46A0 019:833 JLINK_ReadReg(CFBP)  returns 0x00000000 (0000ms, 0336ms total)
T46A0 019:833 JLINK_ReadReg(FPSCR)  returns 0x00000000 (0010ms, 0346ms total)
T46A0 019:843 JLINK_ReadReg(FPS0)  returns 0x00000000 (0000ms, 0346ms total)
T46A0 019:843 JLINK_ReadReg(FPS1)  returns 0x00000000 (0000ms, 0346ms total)
T46A0 019:843 JLINK_ReadReg(FPS2)  returns 0x00000000 (0000ms, 0346ms total)
T46A0 019:843 JLINK_ReadReg(FPS3)  returns 0x00000000 (0000ms, 0346ms total)
T46A0 019:843 JLINK_ReadReg(FPS4)  returns 0x00000000 (0000ms, 0346ms total)
T46A0 019:843 JLINK_ReadReg(FPS5)  returns 0x00000000 (0000ms, 0346ms total)
T46A0 019:843 JLINK_ReadReg(FPS6)  returns 0x00000000 (0000ms, 0346ms total)
T46A0 019:843 JLINK_ReadReg(FPS7)  returns 0x00000000 (0000ms, 0346ms total)
T46A0 019:843 JLINK_ReadReg(FPS8)  returns 0x00000000 (0000ms, 0346ms total)
T46A0 019:843 JLINK_ReadReg(FPS9)  returns 0x00000000 (0000ms, 0346ms total)
T46A0 019:843 JLINK_ReadReg(FPS10)  returns 0x00000000 (0000ms, 0346ms total)
T46A0 019:843 JLINK_ReadReg(FPS11)  returns 0x00000000 (0000ms, 0346ms total)
T46A0 019:843 JLINK_ReadReg(FPS12)  returns 0x00000000 (0000ms, 0346ms total)
T46A0 019:844 JLINK_ReadReg(FPS13)  returns 0x00000000 (0000ms, 0347ms total)
T46A0 019:844 JLINK_ReadReg(FPS14)  returns 0x00000000 (0000ms, 0347ms total)
T46A0 019:844 JLINK_ReadReg(FPS15)  returns 0x00000000 (0000ms, 0347ms total)
T46A0 019:844 JLINK_ReadReg(FPS16)  returns 0x00000000 (0000ms, 0347ms total)
T46A0 019:844 JLINK_ReadReg(FPS17)  returns 0x00000000 (0000ms, 0347ms total)
T46A0 019:844 JLINK_ReadReg(FPS18)  returns 0x00000000 (0000ms, 0347ms total)
T46A0 019:844 JLINK_ReadReg(FPS19)  returns 0x00000000 (0000ms, 0347ms total)
T46A0 019:844 JLINK_ReadReg(FPS20)  returns 0x00000000 (0000ms, 0347ms total)
T46A0 019:844 JLINK_ReadReg(FPS21)  returns 0x00000000 (0000ms, 0347ms total)
T46A0 019:844 JLINK_ReadReg(FPS22)  returns 0x00000000 (0000ms, 0347ms total)
T46A0 019:844 JLINK_ReadReg(FPS23)  returns 0x00000000 (0000ms, 0347ms total)
T46A0 019:844 JLINK_ReadReg(FPS24)  returns 0x00000000 (0000ms, 0347ms total)
T46A0 019:844 JLINK_ReadReg(FPS25)  returns 0x00000000 (0000ms, 0347ms total)
T46A0 019:844 JLINK_ReadReg(FPS26)  returns 0x00000000 (0000ms, 0347ms total)
T46A0 019:844 JLINK_ReadReg(FPS27)  returns 0x00000000 (0000ms, 0347ms total)
T46A0 019:844 JLINK_ReadReg(FPS28)  returns 0x00000000 (0000ms, 0347ms total)
T46A0 019:844 JLINK_ReadReg(FPS29)  returns 0x00000000 (0000ms, 0347ms total)
T46A0 019:844 JLINK_ReadReg(FPS30)  returns 0x00000000 (0000ms, 0347ms total)
T46A0 019:844 JLINK_ReadReg(FPS31)  returns 0x00000000 (0000ms, 0347ms total)
T20C0 019:847 JLINK_ReadMemU32(0xE0001004, 0x0001 Items, ...) -- CPU_ReadMem(4 bytes @ 0xE0001004) - Data: CD D1 2E 19  returns 0x01 (0001ms, 0348ms total)
T20C0 019:849 JLINK_ReadMem (0x000114D6, 0x0002 Bytes, ...) -- CPU_ReadMem(64 bytes @ 0x000114C0) -- Updating C cache (64 bytes @ 0x000114C0) -- Read from C cache (2 bytes @ 0x000114D6) - Data: 40 BF  returns 0x00 (0001ms, 0349ms total)
T20C0 019:850 JLINK_ReadMem (0x000114D8, 0x003C Bytes, ...) -- CPU_ReadMem(64 bytes @ 0x00011500) -- Updating C cache (64 bytes @ 0x00011500) -- Read from C cache (60 bytes @ 0x000114D8) - Data: 20 BF 60 78 21 78 61 70 D5 F8 00 12 29 B9 D5 F8 ...  returns 0x00 (0001ms, 0350ms total)
T20C0 020:673 JLINK_SetResetType(JLINKARM_RESET_TYPE_NORMAL)  returns JLINKARM_RESET_TYPE_NORMAL (0000ms, 0350ms total)
T20C0 020:673 JLINK_Reset() -- CPU_WriteMem(4 bytes @ 0xE000EDF0) -- CPU_WriteMem(4 bytes @ 0xE000EDFC) >0x35 TIF> -- CPU_WriteMem(4 bytes @ 0xE000ED0C) -- CPU_ReadMem(4 bytes @ 0xE000EDF0) -- CPU_ReadMem(4 bytes @ 0xE000EDF0) -- CPU_WriteMem(4 bytes @ 0xE000EDF0) -- CPU_WriteMem(4 bytes @ 0xE000EDFC) -- CPU is running -- CPU_ReadMem(4 bytes @ 0xE000EDF0) -- CPU_WriteMem(4 bytes @ 0xE0002000) -- CPU_ReadMem(4 bytes @ 0xE000EDFC) -- CPU_ReadMem(4 bytes @ 0xE0001000) (0025ms, 0375ms total)
T20C0 020:698 JLINK_ReadReg(R15 (PC))  returns 0x000008E4 (0000ms, 0375ms total)
T20C0 020:698 JLINK_ReadReg(XPSR)  returns 0x01000000 (0000ms, 0375ms total)
T20C0 020:698 JLINK_ReadMemU32(0xE0001004, 0x0001 Items, ...) -- CPU_ReadMem(4 bytes @ 0xE0001004) - Data: D5 D1 2E 19  returns 0x01 (0001ms, 0376ms total)
T20C0 020:699 JLINK_ReadMem (0x000008E4, 0x003C Bytes, ...) -- CPU_ReadMem(128 bytes @ 0x000008C0) -- Updating C cache (128 bytes @ 0x000008C0) -- Read from C cache (60 bytes @ 0x000008E4) - Data: 06 4B 18 47 06 4A 10 60 01 68 81 F3 08 88 40 68 ...  returns 0x00 (0002ms, 0378ms total)
T46A0 021:474 JLINK_Go() -- CPU_ReadMem(4 bytes @ 0xE0001000) -- CPU_WriteMem(4 bytes @ 0xE0002008) -- CPU_WriteMem(4 bytes @ 0xE000200C) -- CPU_WriteMem(4 bytes @ 0xE0002010) -- CPU_WriteMem(4 bytes @ 0xE0002014) -- CPU_WriteMem(4 bytes @ 0xE0002018) -- CPU_WriteMem(4 bytes @ 0xE000201C) -- CPU_WriteMem(4 bytes @ 0xE0001004) (0006ms, 0384ms total)
T46A0 021:580 JLINK_IsHalted()  returns FALSE (0000ms, 0384ms total)
T46A0 021:680 JLINK_IsHalted()  returns FALSE (0000ms, 0384ms total)
T46A0 021:780 JLINK_IsHalted()  returns FALSE (0000ms, 0384ms total)
T46A0 021:880 JLINK_IsHalted()  returns FALSE (0000ms, 0384ms total)
T46A0 021:980 JLINK_IsHalted()  returns FALSE (0000ms, 0384ms total)
T46A0 022:080 JLINK_IsHalted()  returns FALSE (0000ms, 0384ms total)
T46A0 022:180 JLINK_IsHalted()  returns FALSE (0000ms, 0384ms total)
T46A0 022:280 JLINK_IsHalted()  returns FALSE (0000ms, 0384ms total)
T46A0 022:380 JLINK_IsHalted()  returns FALSE (0000ms, 0384ms total)
T46A0 022:480 JLINK_IsHalted()  returns FALSE (0000ms, 0384ms total)
T46A0 022:580 JLINK_IsHalted()  returns FALSE (0000ms, 0384ms total)
T46A0 022:680 JLINK_IsHalted()  returns FALSE (0000ms, 0384ms total)
T46A0 022:780 JLINK_IsHalted()  returns FALSE (0000ms, 0384ms total)
T46A0 022:880 JLINK_IsHalted()  returns FALSE (0000ms, 0384ms total)
T46A0 022:980 JLINK_IsHalted()  returns FALSE (0000ms, 0384ms total)
T46A0 023:080 JLINK_IsHalted()  returns FALSE (0000ms, 0384ms total)
T46A0 023:180 JLINK_IsHalted()  returns FALSE (0000ms, 0384ms total)
T46A0 023:280 JLINK_IsHalted()  returns FALSE (0000ms, 0384ms total)
T46A0 023:380 JLINK_IsHalted()  returns FALSE (0000ms, 0384ms total)
T46A0 023:480 JLINK_IsHalted()  returns FALSE (0000ms, 0384ms total)
T46A0 023:580 JLINK_IsHalted()  returns FALSE (0000ms, 0384ms total)
T46A0 023:680 JLINK_IsHalted()  returns FALSE (0000ms, 0384ms total)
T46A0 023:780 JLINK_IsHalted()  returns FALSE (0000ms, 0384ms total)
T46A0 023:880 JLINK_IsHalted()  returns FALSE (0000ms, 0384ms total)
T46A0 023:980 JLINK_IsHalted()  returns FALSE (0000ms, 0384ms total)
T46A0 024:080 JLINK_IsHalted()  returns FALSE (0000ms, 0384ms total)
T46A0 024:180 JLINK_IsHalted()  returns FALSE (0000ms, 0384ms total)
T46A0 024:280 JLINK_IsHalted()  returns FALSE (0000ms, 0384ms total)
T46A0 024:380 JLINK_IsHalted()  returns FALSE (0000ms, 0384ms total)
T46A0 024:480 JLINK_IsHalted()  returns FALSE (0000ms, 0384ms total)
T46A0 024:580 JLINK_IsHalted()  returns FALSE (0000ms, 0384ms total)
T46A0 024:680 JLINK_IsHalted()  returns FALSE (0000ms, 0384ms total)
T46A0 024:780 JLINK_IsHalted()  returns FALSE (0000ms, 0384ms total)
T46A0 024:880 JLINK_IsHalted()  returns FALSE (0000ms, 0384ms total)
T46A0 024:980 JLINK_IsHalted()  returns FALSE (0000ms, 0384ms total)
T46A0 025:080 JLINK_IsHalted()  returns FALSE (0000ms, 0384ms total)
T46A0 025:180 JLINK_IsHalted()  returns FALSE (0000ms, 0384ms total)
T46A0 025:280 JLINK_IsHalted()  returns FALSE (0000ms, 0384ms total)
T46A0 025:380 JLINK_IsHalted()  returns FALSE (0000ms, 0384ms total)
T46A0 025:480 JLINK_IsHalted()  returns FALSE (0000ms, 0384ms total)
T46A0 025:580 JLINK_IsHalted()  returns FALSE (0000ms, 0384ms total)
T46A0 025:680 JLINK_IsHalted()  returns FALSE (0000ms, 0384ms total)
T46A0 025:780 JLINK_IsHalted()  returns FALSE (0000ms, 0384ms total)
T46A0 025:880 JLINK_IsHalted()  returns FALSE (0000ms, 0384ms total)
T46A0 025:980 JLINK_IsHalted()  returns FALSE (0000ms, 0384ms total)
T46A0 026:080 JLINK_IsHalted()  returns FALSE (0000ms, 0384ms total)
T46A0 026:180 JLINK_IsHalted()  returns FALSE (0000ms, 0384ms total)
T46A0 026:280 JLINK_IsHalted()  returns FALSE (0000ms, 0384ms total)
T46A0 026:380 JLINK_IsHalted()  returns FALSE (0000ms, 0384ms total)
T46A0 026:480 JLINK_IsHalted()  returns FALSE (0000ms, 0384ms total)
T46A0 026:580 JLINK_IsHalted()  returns FALSE (0000ms, 0384ms total)
T46A0 026:680 JLINK_IsHalted()  returns FALSE (0000ms, 0384ms total)
T46A0 026:780 JLINK_IsHalted()  returns FALSE (0000ms, 0384ms total)
T46A0 026:880 JLINK_IsHalted()  returns FALSE (0000ms, 0384ms total)
T46A0 026:980 JLINK_IsHalted()  returns FALSE (0000ms, 0384ms total)
T46A0 027:080 JLINK_IsHalted()  returns FALSE (0000ms, 0384ms total)
T46A0 027:180 JLINK_IsHalted()  returns FALSE (0000ms, 0384ms total)
T46A0 027:280 JLINK_IsHalted()  returns FALSE (0000ms, 0384ms total)
T46A0 027:380 JLINK_IsHalted()  returns FALSE (0000ms, 0384ms total)
T46A0 027:480 JLINK_IsHalted()  returns FALSE (0000ms, 0384ms total)
T46A0 027:580 JLINK_IsHalted()  returns FALSE (0000ms, 0384ms total)
T46A0 027:680 JLINK_IsHalted()  returns FALSE (0000ms, 0384ms total)
T46A0 027:780 JLINK_IsHalted()  returns FALSE (0000ms, 0384ms total)
T46A0 027:880 JLINK_IsHalted()  returns FALSE (0000ms, 0384ms total)
T46A0 027:980 JLINK_IsHalted()  returns FALSE (0000ms, 0384ms total)
T46A0 028:080 JLINK_IsHalted()  returns FALSE (0000ms, 0384ms total)
T46A0 028:180 JLINK_IsHalted()  returns FALSE (0000ms, 0384ms total)
T46A0 028:280 JLINK_IsHalted()  returns FALSE (0000ms, 0384ms total)
T46A0 028:380 JLINK_IsHalted()  returns FALSE (0000ms, 0384ms total)
T46A0 028:480 JLINK_IsHalted()  returns FALSE (0000ms, 0384ms total)
T46A0 028:580 JLINK_IsHalted()  returns FALSE (0000ms, 0384ms total)
T46A0 028:680 JLINK_IsHalted()  returns FALSE (0000ms, 0384ms total)
T46A0 028:780 JLINK_IsHalted()  returns FALSE (0000ms, 0384ms total)
T46A0 028:881 JLINK_IsHalted()  returns FALSE (0000ms, 0384ms total)
T46A0 028:981 JLINK_IsHalted()  returns FALSE (0000ms, 0384ms total)
T46A0 029:081 JLINK_IsHalted()  returns FALSE (0000ms, 0384ms total)
T46A0 029:181 JLINK_IsHalted()  returns FALSE (0000ms, 0384ms total)
T46A0 029:281 JLINK_IsHalted()  returns FALSE (0000ms, 0384ms total)
T46A0 029:381 JLINK_IsHalted()  returns FALSE (0000ms, 0384ms total)
T46A0 029:481 JLINK_IsHalted()  returns FALSE (0000ms, 0384ms total)
T46A0 029:581 JLINK_IsHalted()  returns FALSE (0000ms, 0384ms total)
T46A0 029:681 JLINK_IsHalted()  returns FALSE (0000ms, 0384ms total)
T46A0 029:781 JLINK_IsHalted()  returns FALSE (0000ms, 0384ms total)
T46A0 029:881 JLINK_IsHalted()  returns FALSE (0000ms, 0384ms total)
T46A0 029:981 JLINK_IsHalted()  returns FALSE (0000ms, 0384ms total)
T46A0 030:081 JLINK_IsHalted()  returns FALSE (0000ms, 0384ms total)
T46A0 030:181 JLINK_IsHalted()  returns FALSE (0000ms, 0384ms total)
T46A0 030:281 JLINK_IsHalted()  returns FALSE (0000ms, 0384ms total)
T46A0 030:381 JLINK_IsHalted()  returns FALSE (0000ms, 0384ms total)
T46A0 030:481 JLINK_IsHalted()  returns FALSE (0000ms, 0384ms total)
T46A0 030:581 JLINK_IsHalted()  returns FALSE (0000ms, 0384ms total)
T46A0 030:681 JLINK_IsHalted()  returns FALSE (0000ms, 0384ms total)
T46A0 030:781 JLINK_IsHalted()  returns FALSE (0000ms, 0384ms total)
T46A0 030:881 JLINK_IsHalted()  returns FALSE (0000ms, 0384ms total)
T46A0 030:981 JLINK_IsHalted()  returns FALSE (0000ms, 0384ms total)
T46A0 031:081 JLINK_IsHalted()  returns FALSE (0000ms, 0384ms total)
T46A0 031:181 JLINK_IsHalted()  returns FALSE (0000ms, 0384ms total)
T46A0 031:281 JLINK_IsHalted()  returns FALSE (0000ms, 0384ms total)
T46A0 031:381 JLINK_IsHalted()  returns FALSE (0000ms, 0384ms total)
T46A0 031:481 JLINK_IsHalted()  returns FALSE (0000ms, 0384ms total)
T46A0 031:581 JLINK_IsHalted()  returns FALSE (0000ms, 0384ms total)
T46A0 031:681 JLINK_IsHalted()  returns FALSE (0000ms, 0384ms total)
T46A0 031:781 JLINK_IsHalted()  returns FALSE (0000ms, 0384ms total)
T46A0 031:881 JLINK_IsHalted()  returns FALSE (0000ms, 0384ms total)
T46A0 031:981 JLINK_IsHalted()  returns FALSE (0000ms, 0384ms total)
T46A0 032:081 JLINK_IsHalted()  returns FALSE (0000ms, 0384ms total)
T46A0 032:181 JLINK_IsHalted()  returns FALSE (0000ms, 0384ms total)
T46A0 032:281 JLINK_IsHalted()  returns FALSE (0000ms, 0384ms total)
T46A0 032:381 JLINK_Halt()  returns 0x00 (0006ms, 0390ms total)
T46A0 032:387 JLINK_IsHalted()  returns TRUE (0000ms, 0390ms total)
T46A0 032:387 JLINK_IsHalted()  returns TRUE (0000ms, 0390ms total)
T46A0 032:387 JLINK_IsHalted()  returns TRUE (0000ms, 0390ms total)
T46A0 032:387 JLINK_ReadReg(R15 (PC))  returns 0x000114D6 (0000ms, 0390ms total)
T46A0 032:387 JLINK_ReadReg(XPSR)  returns 0x21000000 (0000ms, 0390ms total)
T46A0 032:387 JLINK_ReadMemU32(0xE000ED30, 0x0001 Items, ...) -- CPU_ReadMem(4 bytes @ 0xE000ED30) - Data: 01 00 00 00  returns 0x01 (0001ms, 0391ms total)
T46A0 032:388 JLINK_ReadMemU32(0xE0001028, 0x0001 Items, ...) -- CPU_ReadMem(4 bytes @ 0xE0001028) - Data: 00 00 00 00  returns 0x01 (0001ms, 0392ms total)
T46A0 032:389 JLINK_ReadMemU32(0xE0001038, 0x0001 Items, ...) -- CPU_ReadMem(4 bytes @ 0xE0001038) - Data: 00 02 00 00  returns 0x01 (0001ms, 0393ms total)
T46A0 032:390 JLINK_ReadMemU32(0xE0001048, 0x0001 Items, ...) -- CPU_ReadMem(4 bytes @ 0xE0001048) - Data: 00 00 00 00  returns 0x01 (0001ms, 0394ms total)
T46A0 032:391 JLINK_ReadMemU32(0xE0001058, 0x0001 Items, ...) -- CPU_ReadMem(4 bytes @ 0xE0001058) - Data: 00 00 00 00  returns 0x01 (0001ms, 0395ms total)
T46A0 032:392 JLINK_ReadReg(R0)  returns 0x01000001 (0000ms, 0395ms total)
T46A0 032:392 JLINK_ReadReg(R1)  returns 0x40020518 (0000ms, 0395ms total)
T46A0 032:392 JLINK_ReadReg(R2)  returns 0xE000E200 (0000ms, 0395ms total)
T46A0 032:392 JLINK_ReadReg(R3)  returns 0x00000000 (0000ms, 0395ms total)
T46A0 032:392 JLINK_ReadReg(R4)  returns 0x20000093 (0000ms, 0395ms total)
T46A0 032:392 JLINK_ReadReg(R5)  returns 0xE000E000 (0000ms, 0395ms total)
T46A0 032:392 JLINK_ReadReg(R6)  returns 0x00000000 (0000ms, 0395ms total)
T46A0 032:392 JLINK_ReadReg(R7)  returns 0x00000000 (0000ms, 0395ms total)
T46A0 032:392 JLINK_ReadReg(R8)  returns 0x00000000 (0000ms, 0395ms total)
T46A0 032:392 JLINK_ReadReg(R9)  returns 0x00000000 (0000ms, 0395ms total)
T46A0 032:392 JLINK_ReadReg(R10)  returns 0x00000000 (0000ms, 0395ms total)
T46A0 032:392 JLINK_ReadReg(R11)  returns 0x00000000 (0000ms, 0395ms total)
T46A0 032:392 JLINK_ReadReg(R12)  returns 0x00000000 (0000ms, 0395ms total)
T46A0 032:392 JLINK_ReadReg(R13 (SP))  returns 0x20005530 (0000ms, 0395ms total)
T46A0 032:392 JLINK_ReadReg(R14)  returns 0x000114D5 (0000ms, 0395ms total)
T46A0 032:392 JLINK_ReadReg(R15 (PC))  returns 0x000114D6 (0000ms, 0395ms total)
T46A0 032:392 JLINK_ReadReg(XPSR)  returns 0x21000000 (0000ms, 0395ms total)
T46A0 032:392 JLINK_ReadReg(MSP)  returns 0x20005530 (0000ms, 0395ms total)
T46A0 032:392 JLINK_ReadReg(PSP)  returns 0x00000000 (0000ms, 0395ms total)
T46A0 032:392 JLINK_ReadReg(CFBP)  returns 0x00000000 (0000ms, 0395ms total)
T46A0 032:392 JLINK_ReadReg(FPSCR)  returns 0x00000000 (0011ms, 0406ms total)
T46A0 032:403 JLINK_ReadReg(FPS0)  returns 0x00000000 (0000ms, 0406ms total)
T46A0 032:403 JLINK_ReadReg(FPS1)  returns 0x00000000 (0000ms, 0406ms total)
T46A0 032:403 JLINK_ReadReg(FPS2)  returns 0x00000000 (0000ms, 0406ms total)
T46A0 032:403 JLINK_ReadReg(FPS3)  returns 0x00000000 (0000ms, 0406ms total)
T46A0 032:403 JLINK_ReadReg(FPS4)  returns 0x00000000 (0000ms, 0406ms total)
T46A0 032:403 JLINK_ReadReg(FPS5)  returns 0x00000000 (0000ms, 0406ms total)
T46A0 032:403 JLINK_ReadReg(FPS6)  returns 0x00000000 (0000ms, 0406ms total)
T46A0 032:403 JLINK_ReadReg(FPS7)  returns 0x00000000 (0000ms, 0406ms total)
T46A0 032:403 JLINK_ReadReg(FPS8)  returns 0x00000000 (0000ms, 0406ms total)
T46A0 032:403 JLINK_ReadReg(FPS9)  returns 0x00000000 (0000ms, 0406ms total)
T46A0 032:403 JLINK_ReadReg(FPS10)  returns 0x00000000 (0000ms, 0406ms total)
T46A0 032:403 JLINK_ReadReg(FPS11)  returns 0x00000000 (0000ms, 0406ms total)
T46A0 032:403 JLINK_ReadReg(FPS12)  returns 0x00000000 (0000ms, 0406ms total)
T46A0 032:403 JLINK_ReadReg(FPS13)  returns 0x00000000 (0000ms, 0406ms total)
T46A0 032:403 JLINK_ReadReg(FPS14)  returns 0x00000000 (0000ms, 0406ms total)
T46A0 032:403 JLINK_ReadReg(FPS15)  returns 0x00000000 (0000ms, 0406ms total)
T46A0 032:403 JLINK_ReadReg(FPS16)  returns 0x00000000 (0000ms, 0406ms total)
T46A0 032:403 JLINK_ReadReg(FPS17)  returns 0x00000000 (0000ms, 0406ms total)
T46A0 032:403 JLINK_ReadReg(FPS18)  returns 0x00000000 (0000ms, 0406ms total)
T46A0 032:403 JLINK_ReadReg(FPS19)  returns 0x00000000 (0000ms, 0406ms total)
T46A0 032:403 JLINK_ReadReg(FPS20)  returns 0x00000000 (0000ms, 0406ms total)
T46A0 032:403 JLINK_ReadReg(FPS21)  returns 0x00000000 (0000ms, 0406ms total)
T46A0 032:403 JLINK_ReadReg(FPS22)  returns 0x00000000 (0000ms, 0406ms total)
T46A0 032:403 JLINK_ReadReg(FPS23)  returns 0x00000000 (0000ms, 0406ms total)
T46A0 032:403 JLINK_ReadReg(FPS24)  returns 0x00000000 (0000ms, 0406ms total)
T46A0 032:403 JLINK_ReadReg(FPS25)  returns 0x00000000 (0000ms, 0406ms total)
T46A0 032:403 JLINK_ReadReg(FPS26)  returns 0x00000000 (0000ms, 0406ms total)
T46A0 032:403 JLINK_ReadReg(FPS27)  returns 0x00000000 (0000ms, 0406ms total)
T46A0 032:403 JLINK_ReadReg(FPS28)  returns 0x00000000 (0000ms, 0406ms total)
T46A0 032:403 JLINK_ReadReg(FPS29)  returns 0x00000000 (0000ms, 0406ms total)
T46A0 032:403 JLINK_ReadReg(FPS30)  returns 0x00000000 (0000ms, 0406ms total)
T46A0 032:403 JLINK_ReadReg(FPS31)  returns 0x00000000 (0000ms, 0406ms total)
T20C0 032:405 JLINK_ReadMemU32(0xE0001004, 0x0001 Items, ...) -- CPU_ReadMem(4 bytes @ 0xE0001004) - Data: 3D 90 A3 29  returns 0x01 (0001ms, 0407ms total)
T20C0 032:406 JLINK_ReadMem (0x000114D6, 0x0002 Bytes, ...) -- CPU_ReadMem(64 bytes @ 0x000114C0) -- Updating C cache (64 bytes @ 0x000114C0) -- Read from C cache (2 bytes @ 0x000114D6) - Data: 40 BF  returns 0x00 (0002ms, 0409ms total)
T20C0 032:408 JLINK_ReadMem (0x000114D8, 0x003C Bytes, ...) -- CPU_ReadMem(64 bytes @ 0x00011500) -- Updating C cache (64 bytes @ 0x00011500) -- Read from C cache (60 bytes @ 0x000114D8) - Data: 20 BF 60 78 21 78 61 70 D5 F8 00 12 29 B9 D5 F8 ...  returns 0x00 (0001ms, 0410ms total)
T20C0 033:393 JLINK_SetResetType(JLINKARM_RESET_TYPE_NORMAL)  returns JLINKARM_RESET_TYPE_NORMAL (0000ms, 0410ms total)
